TCF5C 000:004.304   SEGGER J-Link V8.16 Log File
TCF5C 000:004.469   DLL Compiled: Feb 26 2025 12:07:26
TCF5C 000:004.475   Logging started @ 2026-04-26 18:11
TCF5C 000:004.481   Process: C:\Keil_v5\UV4\UV4.exe
TCF5C 000:004.491 - 4.486ms 
TCF5C 000:004.500 JLINK_SetWarnOutHandler(...)
TCF5C 000:004.506 - 0.007ms 
TCF5C 000:004.514 JLINK_OpenEx(...)
TCF5C 000:007.906   Firmware: J-Link OpenSDA 2 compiled Aug  4 2014 13:30:09
TCF5C 000:009.074   Firmware: J-Link OpenSDA 2 compiled Aug  4 2014 13:30:09
TCF5C 000:011.069   Hardware: V1.00
TCF5C 000:011.082   S/N: 621000000
TCF5C 000:011.089   OEM: SEGGER
TCF5C 000:011.097   Feature(s): None
TCF5C 000:011.515   Bootloader: (FW returned invalid version)
TCF5C 000:012.509   TELNET listener socket opened on port 19021
TCF5C 000:012.689   WEBSRV WEBSRV_Init(): Starting webserver thread(s)
TCF5C 000:012.877   WEBSRV Webserver running on local port 19080
TCF5C 000:012.983   Looking for J-Link GUI Server exe at: C:\Keil_v5\ARM\Segger\JLinkGUIServer.exe
TCF5C 000:013.079   Looking for J-Link GUI Server exe at: C:\Program Files\SEGGER\JLink_V910\JLinkGUIServer.exe
TCF5C 000:013.121   Forking J-Link GUI Server: C:\Program Files\SEGGER\JLink_V910\JLinkGUIServer.exe
TCF5C 000:044.335   J-Link GUI Server info: "J-Link GUI server V9.10 "
TCF5C 000:058.577 - 54.055ms returns "O.K."
TCF5C 000:058.629 JLINK_GetEmuCaps()
TCF5C 000:058.640 - 0.008ms returns 0xB86A5A33
TCF5C 000:058.651 JLINK_TIF_GetAvailable(...)
TCF5C 000:059.020 - 0.369ms 
TCF5C 000:059.048 JLINK_SetErrorOutHandler(...)
TCF5C 000:059.060 - 0.012ms 
TCF5C 000:059.089 JLINK_ExecCommand("ProjectFile = "C:\Keil_v5\Keil_Projects\NDSU_DSP\hw7_fir_filter\JLinkSettings.ini"", ...). 
TCF5C 000:070.099 - 11.011ms returns 0x00
TCF5C 000:072.311 JLINK_ExecCommand("Device = MK22FN512VLH12", ...). 
TCF5C 000:075.402   Device "MK22FN512XXX12" selected.
TCF5C 000:075.827 - 3.493ms returns 0x00
TCF5C 000:075.845 JLINK_ExecCommand("DisableConnectionTimeout", ...). 
TCF5C 000:075.860   ERROR: Unknown command
TCF5C 000:075.868 - 0.015ms returns 0x01
TCF5C 000:075.876 JLINK_GetHardwareVersion()
TCF5C 000:075.882 - 0.006ms returns 10000
TCF5C 000:075.889 JLINK_GetDLLVersion()
TCF5C 000:075.894 - 0.005ms returns 81600
TCF5C 000:075.900 JLINK_GetOEMString(...)
TCF5C 000:075.907 JLINK_GetFirmwareString(...)
TCF5C 000:075.913 - 0.005ms 
TCF5C 000:081.012 JLINK_GetDLLVersion()
TCF5C 000:081.037 - 0.024ms returns 81600
TCF5C 000:081.045 JLINK_GetCompileDateTime()
TCF5C 000:081.051 - 0.005ms 
TCF5C 000:082.711 JLINK_GetFirmwareString(...)
TCF5C 000:082.729 - 0.018ms 
TCF5C 000:084.367 JLINK_GetHardwareVersion()
TCF5C 000:084.384 - 0.017ms returns 10000
TCF5C 000:085.989 JLINK_GetSN()
TCF5C 000:086.004 - 0.014ms returns 621000000
TCF5C 000:088.901 JLINK_GetOEMString(...)
TCF5C 000:091.046 JLINK_TIF_Select(JLINKARM_TIF_SWD)
TCF5C 000:092.646 - 1.601ms returns 0x00
TCF5C 000:092.666 JLINK_HasError()
TCF5C 000:092.681 JLINK_SetSpeed(5000)
TCF5C 000:093.264 - 0.584ms 
TCF5C 000:093.276 JLINK_GetId()
TCF5C 000:095.591   ConfigTargetSettings() start
TCF5C 000:095.617    J-Link Script File: Executing ConfigTargetSettings()
TCF5C 000:097.221   ConfigTargetSettings() end - Took 21us
TCF5C 000:098.797   InitTarget() start
TCF5C 000:098.814    J-Link Script File: Executing InitTarget()
TCF5C 000:100.221   InitTarget()
TCF5C 000:101.834   SWD selected. Executing JTAG -> SWD switching sequence.
TCF5C 000:167.630   InitTarget() end - Took 66.5ms
TCF5C 000:170.469   Found SW-DP with ID 0x2BA01477
TCF5C 000:177.313   Old FW that does not support reading DPIDR via DAP jobs
TCF5C 000:185.728   DPv0 detected
TCF5C 000:187.289   CoreSight SoC-400 or earlier
TCF5C 000:189.013   Scanning AP map to find all available APs
TCF5C 000:197.817   AP[2]: Stopped AP scan as end of AP map has been reached
TCF5C 000:199.804   AP[0]: AHB-AP (IDR: 0x24770011, ADDR: 0x00000000)
TCF5C 000:201.434   AP[1]: JTAG-AP (IDR: 0x001C0000, ADDR: 0x01000000)
TCF5C 000:203.037   Iterating through AP map to find AHB-AP to use
TCF5C 000:212.668   AP[0]: Core found
TCF5C 000:215.171   AP[0]: AHB-AP ROM base: 0xE00FF000
TCF5C 000:221.181   CPUID register: 0x410FC241. Implementer code: 0x41 (ARM)
TCF5C 000:222.897   Found Cortex-M4 r0p1, Little endian.
TCF5C 000:223.558   -- Max. mem block: 0x00000E90
TCF5C 000:224.578   CPU_ReadMem(4 bytes @ 0xE000EDF0)
TCF5C 000:225.196   CPU_WriteMem(4 bytes @ 0xE000EDF0)
TCF5C 000:225.808   CPU_ReadMem(4 bytes @ 0xE0002000)
TCF5C 000:228.472   FPUnit: 6 code (BP) slots and 2 literal slots
TCF5C 000:228.495   CPU_ReadMem(4 bytes @ 0xE000EDFC)
TCF5C 000:229.111   CPU_WriteMem(4 bytes @ 0xE000EDFC)
TCF5C 000:229.739   CPU_ReadMem(4 bytes @ 0xE0001000)
TCF5C 000:230.369   CPU_WriteMem(4 bytes @ 0xE0001000)
TCF5C 000:230.976   CPU_ReadMem(4 bytes @ 0xE000ED88)
TCF5C 000:231.581   CPU_WriteMem(4 bytes @ 0xE000ED88)
TCF5C 000:232.227   CPU_ReadMem(4 bytes @ 0xE000ED88)
TCF5C 000:232.811   CPU_WriteMem(4 bytes @ 0xE000ED88)
TCF5C 000:235.471   CoreSight components:
TCF5C 000:237.716   ROMTbl[0] @ E00FF000
TCF5C 000:237.743   CPU_ReadMem(64 bytes @ 0xE00FF000)
TCF5C 000:239.033   CPU_ReadMem(32 bytes @ 0xE000EFE0)
TCF5C 000:241.958   [0][0]: E000E000 CID B105E00D PID 000BB00C SCS-M7
TCF5C 000:241.980   CPU_ReadMem(32 bytes @ 0xE0001FE0)
TCF5C 000:244.846   [0][1]: E0001000 CID B105E00D PID 003BB002 DWT
TCF5C 000:244.875   CPU_ReadMem(32 bytes @ 0xE0002FE0)
TCF5C 000:247.525   [0][2]: E0002000 CID B105E00D PID 002BB003 FPB
TCF5C 000:247.550   CPU_ReadMem(32 bytes @ 0xE0000FE0)
TCF5C 000:250.191   [0][3]: E0000000 CID B105E00D PID 003BB001 ITM
TCF5C 000:250.214   CPU_ReadMem(32 bytes @ 0xE0040FE0)
TCF5C 000:253.262   [0][4]: E0040000 CID B105900D PID 000BB9A1 TPIU
TCF5C 000:254.142 - 160.865ms returns 0x2BA01477
TCF5C 000:254.224 JLINK_GetDLLVersion()
TCF5C 000:254.233 - 0.009ms returns 81600
TCF5C 000:254.245 JLINK_CORE_GetFound()
TCF5C 000:254.252 - 0.007ms returns 0xE0000FF
TCF5C 000:254.260 JLINK_GetDebugInfo(0x100 = JLINKARM_ROM_TABLE_ADDR_INDEX)
TCF5C 000:254.269   Value=0xE00FF000
TCF5C 000:254.279 - 0.019ms returns 0
TCF5C 000:256.008 JLINK_GetDebugInfo(0x100 = JLINKARM_ROM_TABLE_ADDR_INDEX)
TCF5C 000:256.025   Value=0xE00FF000
TCF5C 000:256.034 - 0.026ms returns 0
TCF5C 000:256.041 JLINK_GetDebugInfo(0x101 = JLINKARM_DEBUG_INFO_ETM_ADDR_INDEX)
TCF5C 000:256.047   Value=0xE0041000
TCF5C 000:256.054 - 0.013ms returns 0
TCF5C 000:256.061 JLINK_ReadMemEx(0xE0041FD0, 0x20 Bytes, Flags = 0x02000004)
TCF5C 000:256.086   CPU_ReadMem(32 bytes @ 0xE0041FD0)
TCF5C 000:257.034   Data:  00 00 00 00 00 00 00 00 00 00 00 00 00 00 00 00 ...
TCF5C 000:257.052 - 0.990ms returns 32 (0x20)
TCF5C 000:257.061 JLINK_GetDebugInfo(0x102 = JLINKARM_DEBUG_INFO_MTB_ADDR_INDEX)
TCF5C 000:257.067   Value=0x00000000
TCF5C 000:257.074 - 0.013ms returns 0
TCF5C 000:257.081 JLINK_GetDebugInfo(0x103 = JLINKARM_DEBUG_INFO_TPIU_ADDR_INDEX)
TCF5C 000:257.086   Value=0xE0040000
TCF5C 000:257.094 - 0.013ms returns 0
TCF5C 000:257.100 JLINK_GetDebugInfo(0x104 = JLINKARM_DEBUG_INFO_ITM_ADDR_INDEX)
TCF5C 000:257.105   Value=0xE0000000
TCF5C 000:257.113 - 0.013ms returns 0
TCF5C 000:257.119 JLINK_GetDebugInfo(0x105 = JLINKARM_DEBUG_INFO_DWT_ADDR_INDEX)
TCF5C 000:257.124   Value=0xE0001000
TCF5C 000:257.132 - 0.012ms returns 0
TCF5C 000:257.138 JLINK_GetDebugInfo(0x106 = JLINKARM_DEBUG_INFO_FPB_ADDR_INDEX)
TCF5C 000:257.144   Value=0xE0002000
TCF5C 000:257.151 - 0.013ms returns 0
TCF5C 000:257.158 JLINK_GetDebugInfo(0x107 = JLINKARM_DEBUG_INFO_NVIC_ADDR_INDEX)
TCF5C 000:257.163   Value=0xE000E000
TCF5C 000:257.170 - 0.012ms returns 0
TCF5C 000:257.177 JLINK_GetDebugInfo(0x10C = JLINKARM_DEBUG_INFO_DBG_ADDR_INDEX)
TCF5C 000:257.182   Value=0xE000EDF0
TCF5C 000:257.189 - 0.012ms returns 0
TCF5C 000:257.196 JLINK_GetDebugInfo(0x01 = Unknown)
TCF5C 000:257.201   Value=0x00000001
TCF5C 000:257.208 - 0.012ms returns 0
TCF5C 000:257.215 JLINK_ReadMemU32(0xE000ED00, 0x1 Items)
TCF5C 000:257.224   CPU_ReadMem(4 bytes @ 0xE000ED00)
TCF5C 000:257.812   Data:  41 C2 0F 41
TCF5C 000:257.823   Debug reg: CPUID
TCF5C 000:257.837 - 0.622ms returns 1 (0x1)
TCF5C 000:257.845 JLINK_GetDebugInfo(0x10F = JLINKARM_DEBUG_INFO_HAS_CORTEX_M_SECURITY_EXT_INDEX)
TCF5C 000:257.851   Value=0x00000000
TCF5C 000:257.858 - 0.013ms returns 0
TCF5C 000:257.865 JLINK_HasError()
TCF5C 000:257.872 JLINK_SetResetType(JLINKARM_CM3_RESET_TYPE_NORMAL)
TCF5C 000:257.878 - 0.006ms returns JLINKARM_CM3_RESET_TYPE_NORMAL
TCF5C 000:257.884 JLINK_Reset()
TCF5C 000:257.896   JLINK_GetResetTypeDesc
TCF5C 000:257.901   - 0.005ms 
TCF5C 000:259.671   Reset type: NORMAL (https://wiki.segger.com/J-Link_Reset_Strategies)
TCF5C 000:259.693   CPU is running
TCF5C 000:259.706   CPU_WriteMem(4 bytes @ 0xE000EDF0)
TCF5C 000:260.371   CPU is running
TCF5C 000:260.392   CPU_WriteMem(4 bytes @ 0xE000EDFC)
TCF5C 000:263.256   Reset: Halt core after reset via DEMCR.VC_CORERESET.
TCF5C 000:265.598   Reset: Reset device via AIRCR.SYSRESETREQ.
TCF5C 000:265.620   CPU is running
TCF5C 000:265.632   CPU_WriteMem(4 bytes @ 0xE000ED0C)
TCF5C 000:319.957   CPU_ReadMem(4 bytes @ 0xE000EDF0)
TCF5C 000:320.587   CPU_ReadMem(4 bytes @ 0xE000EDF0)
TCF5C 000:325.083   CPU_WriteMem(4 bytes @ 0xE000EDFC)
TCF5C 000:331.208   CPU_ReadMem(4 bytes @ 0xE000EDF0)
TCF5C 000:337.666   AfterResetTarget() start
TCF5C 000:337.693    J-Link Script File: Executing AfterResetTarget()
TCF5C 000:339.293   AfterResetTarget()
TCF5C 000:419.347   AfterResetTarget() end - Took 78.9ms
TCF5C 000:419.386   CPU_WriteMem(4 bytes @ 0xE0002000)
TCF5C 000:420.029   CPU_ReadMem(4 bytes @ 0xE000EDFC)
TCF5C 000:420.715   CPU_ReadMem(4 bytes @ 0xE0001000)
TCF5C 000:421.376 - 163.491ms 
TCF5C 000:421.441 JLINK_Halt()
TCF5C 000:421.450 - 0.008ms returns 0x00
TCF5C 000:421.459 JLINK_ReadMemU32(0xE000EDF0, 0x1 Items)
TCF5C 000:421.473   CPU_ReadMem(4 bytes @ 0xE000EDF0)
TCF5C 000:422.102   Data:  0B 00 03 00
TCF5C 000:422.114   Debug reg: DHCSR
TCF5C 000:422.124 - 0.664ms returns 1 (0x1)
TCF5C 000:422.133 JLINK_WriteU32(0xE000EDF0, 0xA05F0003)
TCF5C 000:422.140   Debug reg: DHCSR
TCF5C 000:422.383   CPU_WriteMem(4 bytes @ 0xE000EDF0)
TCF5C 000:423.025 - 0.891ms returns 0 (0x00000000)
TCF5C 000:423.036 JLINK_WriteU32(0xE000EDFC, 0x01000000)
TCF5C 000:423.043   Debug reg: DEMCR
TCF5C 000:423.056   CPU_WriteMem(4 bytes @ 0xE000EDFC)
TCF5C 000:423.714 - 0.677ms returns 0 (0x00000000)
TCF5C 000:430.412 JLINK_GetHWStatus(...)
TCF5C 000:430.778 - 0.365ms returns 0
TCF5C 000:435.473 JLINK_GetNumBPUnits(Type = 0xFFFFFF00)
TCF5C 000:435.511 - 0.037ms returns 0x06
TCF5C 000:435.518 JLINK_GetNumBPUnits(Type = 0xF0)
TCF5C 000:435.524 - 0.006ms returns 0x2000
TCF5C 000:435.530 JLINK_GetNumWPUnits()
TCF5C 000:435.536 - 0.005ms returns 4
TCF5C 000:443.250 JLINK_GetSpeed()
TCF5C 000:443.273 - 0.022ms returns 1429
TCF5C 000:447.656 JLINK_ReadMemU32(0xE000E004, 0x1 Items)
TCF5C 000:447.700   CPU_ReadMem(4 bytes @ 0xE000E004)
TCF5C 000:448.413   Data:  02 00 00 00
TCF5C 000:448.432 - 0.776ms returns 1 (0x1)
TCF5C 000:448.440 JLINK_ReadMemU32(0xE000E004, 0x1 Items)
TCF5C 000:448.450   CPU_ReadMem(4 bytes @ 0xE000E004)
TCF5C 000:449.083   Data:  02 00 00 00
TCF5C 000:449.094 - 0.653ms returns 1 (0x1)
TCF5C 000:449.101 JLINK_WriteMemEx(0xE0001000, 0x0000001C Bytes, Flags = 0x02000004)
TCF5C 000:449.107   Data:  01 00 00 00 00 00 00 00 00 00 00 00 00 00 00 00 ...
TCF5C 000:449.120   CPU_WriteMem(28 bytes @ 0xE0001000)
TCF5C 000:450.013 - 0.911ms returns 0x1C
TCF5C 000:450.027 JLINK_Halt()
TCF5C 000:450.034 - 0.006ms returns 0x00
TCF5C 000:450.042 JLINK_IsHalted()
TCF5C 000:450.050 - 0.007ms returns TRUE
TCF5C 000:452.754 JLINK_WriteMem(0x20000000, 0x428 Bytes, ...)
TCF5C 000:452.764   Data:  00 BE 0A E0 0D 78 2D 06 68 40 08 24 40 00 00 D3 ...
TCF5C 000:452.958   CPU_WriteMem(1064 bytes @ 0x20000000)
TCF5C 000:465.005 - 12.250ms returns 0x428
TCF5C 000:465.087 JLINK_HasError()
TCF5C 000:465.097 JLINK_WriteReg(R0, 0x00000000)
TCF5C 000:465.107 - 0.009ms returns 0
TCF5C 000:465.114 JLINK_WriteReg(R1, 0x00B71B00)
TCF5C 000:465.120 - 0.006ms returns 0
TCF5C 000:465.127 JLINK_WriteReg(R2, 0x00000001)
TCF5C 000:465.137 - 0.010ms returns 0
TCF5C 000:465.147 JLINK_WriteReg(R3, 0x00000000)
TCF5C 000:465.153 - 0.005ms returns 0
TCF5C 000:465.159 JLINK_WriteReg(R4, 0x00000000)
TCF5C 000:465.165 - 0.005ms returns 0
TCF5C 000:465.171 JLINK_WriteReg(R5, 0x00000000)
TCF5C 000:465.176 - 0.005ms returns 0
TCF5C 000:465.182 JLINK_WriteReg(R6, 0x00000000)
TCF5C 000:465.188 - 0.005ms returns 0
TCF5C 000:465.194 JLINK_WriteReg(R7, 0x00000000)
TCF5C 000:465.199 - 0.005ms returns 0
TCF5C 000:465.213 JLINK_WriteReg(R8, 0x00000000)
TCF5C 000:465.218 - 0.013ms returns 0
TCF5C 000:465.225 JLINK_WriteReg(R9, 0x20000420)
TCF5C 000:465.230 - 0.005ms returns 0
TCF5C 000:465.236 JLINK_WriteReg(R10, 0x00000000)
TCF5C 000:465.242 - 0.005ms returns 0
TCF5C 000:465.248 JLINK_WriteReg(R11, 0x00000000)
TCF5C 000:465.253 - 0.005ms returns 0
TCF5C 000:465.259 JLINK_WriteReg(R12, 0x00000000)
TCF5C 000:465.265 - 0.005ms returns 0
TCF5C 000:465.271 JLINK_WriteReg(R13 (SP), 0x20001000)
TCF5C 000:465.277 - 0.006ms returns 0
TCF5C 000:465.284 JLINK_WriteReg(R14, 0x20000001)
TCF5C 000:465.289 - 0.005ms returns 0
TCF5C 000:465.298 JLINK_WriteReg(R15 (PC), 0x20000020)
TCF5C 000:465.303 - 0.007ms returns 0
TCF5C 000:465.310 JLINK_WriteReg(XPSR, 0x01000000)
TCF5C 000:465.315 - 0.005ms returns 0
TCF5C 000:465.321 JLINK_WriteReg(MSP, 0x20001000)
TCF5C 000:465.327 - 0.005ms returns 0
TCF5C 000:465.333 JLINK_WriteReg(PSP, 0x20001000)
TCF5C 000:465.339 - 0.005ms returns 0
TCF5C 000:465.345 JLINK_WriteReg(CFBP, 0x00000000)
TCF5C 000:465.350 - 0.005ms returns 0
TCF5C 000:465.357 JLINK_SetBPEx(Addr = 0x20000000, Type = 0xFFFFFFF2)
TCF5C 000:465.370   CPU_ReadMem(2 bytes @ 0x20000000)
TCF5C 000:465.999 - 0.641ms returns 0x00000001
TCF5C 000:466.010 JLINK_Go()
TCF5C 000:466.021   CPU_WriteMem(2 bytes @ 0x20000000)
TCF5C 000:466.736   CPU_ReadMem(4 bytes @ 0xE0001000)
TCF5C 000:467.367   CPU_WriteMem(4 bytes @ 0xE0002008)
TCF5C 000:467.378   CPU_WriteMem(4 bytes @ 0xE000200C)
TCF5C 000:467.387   CPU_WriteMem(4 bytes @ 0xE0002010)
TCF5C 000:467.395   CPU_WriteMem(4 bytes @ 0xE0002014)
TCF5C 000:467.403   CPU_WriteMem(4 bytes @ 0xE0002018)
TCF5C 000:467.410   CPU_WriteMem(4 bytes @ 0xE000201C)
TCF5C 000:470.059   CPU_WriteMem(4 bytes @ 0xE0001004)
TCF5C 000:476.104   Memory map 'after startup completion point' is active
TCF5C 000:476.127 - 10.116ms 
TCF5C 000:476.186 JLINK_IsHalted()
TCF5C 000:480.030   CPU_ReadMem(2 bytes @ 0x20000000)
TCF5C 000:480.710 - 4.524ms returns TRUE
TCF5C 000:480.721 JLINK_ReadReg(R15 (PC))
TCF5C 000:480.729 - 0.007ms returns 0x20000000
TCF5C 000:480.736 JLINK_ClrBPEx(BPHandle = 0x00000001)
TCF5C 000:480.742 - 0.006ms returns 0x00
TCF5C 000:480.748 JLINK_ReadReg(R0)
TCF5C 000:480.754 - 0.005ms returns 0x00000000
TCF5C 000:481.001 JLINK_HasError()
TCF5C 000:481.015 JLINK_WriteReg(R0, 0x00000000)
TCF5C 000:481.022 - 0.006ms returns 0
TCF5C 000:481.029 JLINK_WriteReg(R1, 0x00000800)
TCF5C 000:481.034 - 0.005ms returns 0
TCF5C 000:481.040 JLINK_WriteReg(R2, 0x000000FF)
TCF5C 000:481.046 - 0.005ms returns 0
TCF5C 000:481.052 JLINK_WriteReg(R3, 0x00000000)
TCF5C 000:481.058 - 0.005ms returns 0
TCF5C 000:481.065 JLINK_WriteReg(R4, 0x00000000)
TCF5C 000:481.070 - 0.005ms returns 0
TCF5C 000:481.077 JLINK_WriteReg(R5, 0x00000000)
TCF5C 000:481.082 - 0.005ms returns 0
TCF5C 000:481.088 JLINK_WriteReg(R6, 0x00000000)
TCF5C 000:481.094 - 0.005ms returns 0
TCF5C 000:481.101 JLINK_WriteReg(R7, 0x00000000)
TCF5C 000:481.106 - 0.005ms returns 0
TCF5C 000:481.112 JLINK_WriteReg(R8, 0x00000000)
TCF5C 000:481.118 - 0.005ms returns 0
TCF5C 000:481.124 JLINK_WriteReg(R9, 0x20000420)
TCF5C 000:481.129 - 0.005ms returns 0
TCF5C 000:481.135 JLINK_WriteReg(R10, 0x00000000)
TCF5C 000:481.141 - 0.005ms returns 0
TCF5C 000:481.147 JLINK_WriteReg(R11, 0x00000000)
TCF5C 000:481.152 - 0.005ms returns 0
TCF5C 000:481.158 JLINK_WriteReg(R12, 0x00000000)
TCF5C 000:481.163 - 0.005ms returns 0
TCF5C 000:481.170 JLINK_WriteReg(R13 (SP), 0x20001000)
TCF5C 000:481.175 - 0.005ms returns 0
TCF5C 000:481.231 JLINK_WriteReg(R14, 0x20000001)
TCF5C 000:481.241 - 0.009ms returns 0
TCF5C 000:481.247 JLINK_WriteReg(R15 (PC), 0x20000074)
TCF5C 000:481.253 - 0.005ms returns 0
TCF5C 000:481.259 JLINK_WriteReg(XPSR, 0x01000000)
TCF5C 000:481.265 - 0.005ms returns 0
TCF5C 000:481.271 JLINK_WriteReg(MSP, 0x20001000)
TCF5C 000:481.276 - 0.005ms returns 0
TCF5C 000:481.282 JLINK_WriteReg(PSP, 0x20001000)
TCF5C 000:481.288 - 0.005ms returns 0
TCF5C 000:481.294 JLINK_WriteReg(CFBP, 0x00000000)
TCF5C 000:481.300 - 0.005ms returns 0
TCF5C 000:481.306 JLINK_SetBPEx(Addr = 0x20000000, Type = 0xFFFFFFF2)
TCF5C 000:481.312 - 0.006ms returns 0x00000002
TCF5C 000:481.319 JLINK_Go()
TCF5C 000:481.330   CPU_ReadMem(4 bytes @ 0xE0001000)
TCF5C 000:485.199 - 3.879ms 
TCF5C 000:485.218 JLINK_IsHalted()
TCF5C 000:489.067   CPU_ReadMem(2 bytes @ 0x20000000)
TCF5C 000:489.713 - 4.494ms returns TRUE
TCF5C 000:489.729 JLINK_ReadReg(R15 (PC))
TCF5C 000:489.739 - 0.009ms returns 0x20000000
TCF5C 000:489.748 JLINK_ClrBPEx(BPHandle = 0x00000002)
TCF5C 000:489.756 - 0.008ms returns 0x00
TCF5C 000:489.765 JLINK_ReadReg(R0)
TCF5C 000:489.772 - 0.007ms returns 0x00000001
TCF5C 000:489.782 JLINK_HasError()
TCF5C 000:489.791 JLINK_WriteReg(R0, 0x00000000)
TCF5C 000:489.799 - 0.008ms returns 0
TCF5C 000:489.809 JLINK_WriteReg(R1, 0x00000800)
TCF5C 000:489.816 - 0.007ms returns 0
TCF5C 000:489.825 JLINK_WriteReg(R2, 0x000000FF)
TCF5C 000:489.832 - 0.007ms returns 0
TCF5C 000:489.840 JLINK_WriteReg(R3, 0x00000000)
TCF5C 000:489.848 - 0.007ms returns 0
TCF5C 000:489.857 JLINK_WriteReg(R4, 0x00000000)
TCF5C 000:489.864 - 0.007ms returns 0
TCF5C 000:489.873 JLINK_WriteReg(R5, 0x00000000)
TCF5C 000:489.880 - 0.007ms returns 0
TCF5C 000:489.888 JLINK_WriteReg(R6, 0x00000000)
TCF5C 000:489.896 - 0.007ms returns 0
TCF5C 000:489.904 JLINK_WriteReg(R7, 0x00000000)
TCF5C 000:489.911 - 0.007ms returns 0
TCF5C 000:489.920 JLINK_WriteReg(R8, 0x00000000)
TCF5C 000:489.927 - 0.007ms returns 0
TCF5C 000:489.935 JLINK_WriteReg(R9, 0x20000420)
TCF5C 000:489.943 - 0.007ms returns 0
TCF5C 000:489.951 JLINK_WriteReg(R10, 0x00000000)
TCF5C 000:489.959 - 0.007ms returns 0
TCF5C 000:489.967 JLINK_WriteReg(R11, 0x00000000)
TCF5C 000:489.974 - 0.007ms returns 0
TCF5C 000:489.983 JLINK_WriteReg(R12, 0x00000000)
TCF5C 000:489.990 - 0.007ms returns 0
TCF5C 000:489.999 JLINK_WriteReg(R13 (SP), 0x20001000)
TCF5C 000:490.006 - 0.007ms returns 0
TCF5C 000:490.015 JLINK_WriteReg(R14, 0x20000001)
TCF5C 000:490.022 - 0.007ms returns 0
TCF5C 000:490.031 JLINK_WriteReg(R15 (PC), 0x200000CA)
TCF5C 000:490.038 - 0.007ms returns 0
TCF5C 000:490.047 JLINK_WriteReg(XPSR, 0x01000000)
TCF5C 000:490.054 - 0.007ms returns 0
TCF5C 000:490.063 JLINK_WriteReg(MSP, 0x20001000)
TCF5C 000:490.070 - 0.007ms returns 0
TCF5C 000:490.079 JLINK_WriteReg(PSP, 0x20001000)
TCF5C 000:490.086 - 0.007ms returns 0
TCF5C 000:490.094 JLINK_WriteReg(CFBP, 0x00000000)
TCF5C 000:490.102 - 0.007ms returns 0
TCF5C 000:490.110 JLINK_SetBPEx(Addr = 0x20000000, Type = 0xFFFFFFF2)
TCF5C 000:490.119 - 0.008ms returns 0x00000003
TCF5C 000:490.127 JLINK_Go()
TCF5C 000:490.141   CPU_ReadMem(4 bytes @ 0xE0001000)
TCF5C 000:494.137 - 4.009ms 
TCF5C 000:494.155 JLINK_IsHalted()
TCF5C 000:494.801 - 0.645ms returns FALSE
TCF5C 000:494.816 JLINK_HasError()
TCF5C 000:501.556 JLINK_IsHalted()
TCF5C 000:505.461   CPU_ReadMem(2 bytes @ 0x20000000)
TCF5C 000:506.090 - 4.533ms returns TRUE
TCF5C 000:506.104 JLINK_ReadReg(R15 (PC))
TCF5C 000:506.114 - 0.010ms returns 0x20000000
TCF5C 000:506.123 JLINK_ClrBPEx(BPHandle = 0x00000003)
TCF5C 000:506.130 - 0.007ms returns 0x00
TCF5C 000:506.138 JLINK_ReadReg(R0)
TCF5C 000:506.145 - 0.006ms returns 0x00000000
TCF5C 000:506.642 JLINK_HasError()
TCF5C 000:506.658 JLINK_WriteReg(R0, 0x00000800)
TCF5C 000:506.665 - 0.007ms returns 0
TCF5C 000:506.671 JLINK_WriteReg(R1, 0x00000800)
TCF5C 000:506.677 - 0.005ms returns 0
TCF5C 000:506.683 JLINK_WriteReg(R2, 0x000000FF)
TCF5C 000:506.689 - 0.005ms returns 0
TCF5C 000:506.700 JLINK_WriteReg(R3, 0x00000000)
TCF5C 000:506.708 - 0.008ms returns 0
TCF5C 000:506.714 JLINK_WriteReg(R4, 0x00000000)
TCF5C 000:506.720 - 0.005ms returns 0
TCF5C 000:506.726 JLINK_WriteReg(R5, 0x00000000)
TCF5C 000:506.731 - 0.005ms returns 0
TCF5C 000:506.738 JLINK_WriteReg(R6, 0x00000000)
TCF5C 000:506.743 - 0.005ms returns 0
TCF5C 000:506.749 JLINK_WriteReg(R7, 0x00000000)
TCF5C 000:506.754 - 0.005ms returns 0
TCF5C 000:506.761 JLINK_WriteReg(R8, 0x00000000)
TCF5C 000:506.766 - 0.005ms returns 0
TCF5C 000:506.772 JLINK_WriteReg(R9, 0x20000420)
TCF5C 000:506.778 - 0.005ms returns 0
TCF5C 000:506.784 JLINK_WriteReg(R10, 0x00000000)
TCF5C 000:506.790 - 0.005ms returns 0
TCF5C 000:506.796 JLINK_WriteReg(R11, 0x00000000)
TCF5C 000:506.801 - 0.005ms returns 0
TCF5C 000:506.807 JLINK_WriteReg(R12, 0x00000000)
TCF5C 000:506.813 - 0.006ms returns 0
TCF5C 000:506.820 JLINK_WriteReg(R13 (SP), 0x20001000)
TCF5C 000:506.825 - 0.005ms returns 0
TCF5C 000:506.832 JLINK_WriteReg(R14, 0x20000001)
TCF5C 000:506.837 - 0.005ms returns 0
TCF5C 000:506.843 JLINK_WriteReg(R15 (PC), 0x20000074)
TCF5C 000:506.848 - 0.005ms returns 0
TCF5C 000:506.855 JLINK_WriteReg(XPSR, 0x01000000)
TCF5C 000:506.860 - 0.005ms returns 0
TCF5C 000:506.866 JLINK_WriteReg(MSP, 0x20001000)
TCF5C 000:506.871 - 0.005ms returns 0
TCF5C 000:506.878 JLINK_WriteReg(PSP, 0x20001000)
TCF5C 000:506.883 - 0.005ms returns 0
TCF5C 000:506.889 JLINK_WriteReg(CFBP, 0x00000000)
TCF5C 000:506.895 - 0.005ms returns 0
TCF5C 000:506.902 JLINK_SetBPEx(Addr = 0x20000000, Type = 0xFFFFFFF2)
TCF5C 000:506.908 - 0.006ms returns 0x00000004
TCF5C 000:506.914 JLINK_Go()
TCF5C 000:506.926   CPU_ReadMem(4 bytes @ 0xE0001000)
TCF5C 000:511.014 - 4.098ms 
TCF5C 000:511.035 JLINK_IsHalted()
TCF5C 000:515.002   CPU_ReadMem(2 bytes @ 0x20000000)
TCF5C 000:515.677 - 4.642ms returns TRUE
TCF5C 000:515.690 JLINK_ReadReg(R15 (PC))
TCF5C 000:515.698 - 0.008ms returns 0x20000000
TCF5C 000:515.706 JLINK_ClrBPEx(BPHandle = 0x00000004)
TCF5C 000:515.713 - 0.006ms returns 0x00
TCF5C 000:515.721 JLINK_ReadReg(R0)
TCF5C 000:515.728 - 0.006ms returns 0x00000001
TCF5C 000:515.736 JLINK_HasError()
TCF5C 000:515.744 JLINK_WriteReg(R0, 0x00000800)
TCF5C 000:515.751 - 0.007ms returns 0
TCF5C 000:515.759 JLINK_WriteReg(R1, 0x00000800)
TCF5C 000:515.765 - 0.006ms returns 0
TCF5C 000:515.774 JLINK_WriteReg(R2, 0x000000FF)
TCF5C 000:515.780 - 0.006ms returns 0
TCF5C 000:515.788 JLINK_WriteReg(R3, 0x00000000)
TCF5C 000:515.794 - 0.006ms returns 0
TCF5C 000:515.802 JLINK_WriteReg(R4, 0x00000000)
TCF5C 000:515.808 - 0.006ms returns 0
TCF5C 000:515.816 JLINK_WriteReg(R5, 0x00000000)
TCF5C 000:515.822 - 0.006ms returns 0
TCF5C 000:515.830 JLINK_WriteReg(R6, 0x00000000)
TCF5C 000:515.836 - 0.006ms returns 0
TCF5C 000:515.844 JLINK_WriteReg(R7, 0x00000000)
TCF5C 000:515.850 - 0.006ms returns 0
TCF5C 000:515.858 JLINK_WriteReg(R8, 0x00000000)
TCF5C 000:515.864 - 0.006ms returns 0
TCF5C 000:515.872 JLINK_WriteReg(R9, 0x20000420)
TCF5C 000:515.878 - 0.006ms returns 0
TCF5C 000:515.886 JLINK_WriteReg(R10, 0x00000000)
TCF5C 000:515.892 - 0.006ms returns 0
TCF5C 000:515.899 JLINK_WriteReg(R11, 0x00000000)
TCF5C 000:515.906 - 0.006ms returns 0
TCF5C 000:515.913 JLINK_WriteReg(R12, 0x00000000)
TCF5C 000:515.920 - 0.006ms returns 0
TCF5C 000:515.927 JLINK_WriteReg(R13 (SP), 0x20001000)
TCF5C 000:515.934 - 0.006ms returns 0
TCF5C 000:515.942 JLINK_WriteReg(R14, 0x20000001)
TCF5C 000:515.948 - 0.006ms returns 0
TCF5C 000:515.956 JLINK_WriteReg(R15 (PC), 0x200000CA)
TCF5C 000:515.962 - 0.006ms returns 0
TCF5C 000:515.970 JLINK_WriteReg(XPSR, 0x01000000)
TCF5C 000:515.976 - 0.006ms returns 0
TCF5C 000:515.984 JLINK_WriteReg(MSP, 0x20001000)
TCF5C 000:515.990 - 0.006ms returns 0
TCF5C 000:515.998 JLINK_WriteReg(PSP, 0x20001000)
TCF5C 000:516.005 - 0.006ms returns 0
TCF5C 000:516.012 JLINK_WriteReg(CFBP, 0x00000000)
TCF5C 000:516.019 - 0.006ms returns 0
TCF5C 000:516.026 JLINK_SetBPEx(Addr = 0x20000000, Type = 0xFFFFFFF2)
TCF5C 000:516.034 - 0.007ms returns 0x00000005
TCF5C 000:516.048 JLINK_Go()
TCF5C 000:516.060   CPU_ReadMem(4 bytes @ 0xE0001000)
TCF5C 000:520.079 - 4.030ms 
TCF5C 000:520.097 JLINK_IsHalted()
TCF5C 000:520.710 - 0.613ms returns FALSE
TCF5C 000:520.728 JLINK_HasError()
TCF5C 000:523.203 JLINK_IsHalted()
TCF5C 000:523.784 - 0.580ms returns FALSE
TCF5C 000:523.797 JLINK_HasError()
TCF5C 000:525.785 JLINK_IsHalted()
TCF5C 000:529.639   CPU_ReadMem(2 bytes @ 0x20000000)
TCF5C 000:530.288 - 4.503ms returns TRUE
TCF5C 000:530.356 JLINK_ReadReg(R15 (PC))
TCF5C 000:530.368 - 0.012ms returns 0x20000000
TCF5C 000:530.377 JLINK_ClrBPEx(BPHandle = 0x00000005)
TCF5C 000:530.386 - 0.008ms returns 0x00
TCF5C 000:530.394 JLINK_ReadReg(R0)
TCF5C 000:530.402 - 0.007ms returns 0x00000000
TCF5C 000:530.826 JLINK_HasError()
TCF5C 000:530.846 JLINK_WriteReg(R0, 0x00000001)
TCF5C 000:530.855 - 0.009ms returns 0
TCF5C 000:530.863 JLINK_WriteReg(R1, 0x00000800)
TCF5C 000:530.871 - 0.007ms returns 0
TCF5C 000:530.879 JLINK_WriteReg(R2, 0x000000FF)
TCF5C 000:530.887 - 0.007ms returns 0
TCF5C 000:530.895 JLINK_WriteReg(R3, 0x00000000)
TCF5C 000:530.903 - 0.007ms returns 0
TCF5C 000:530.911 JLINK_WriteReg(R4, 0x00000000)
TCF5C 000:530.919 - 0.007ms returns 0
TCF5C 000:530.927 JLINK_WriteReg(R5, 0x00000000)
TCF5C 000:530.934 - 0.007ms returns 0
TCF5C 000:530.943 JLINK_WriteReg(R6, 0x00000000)
TCF5C 000:530.950 - 0.007ms returns 0
TCF5C 000:530.958 JLINK_WriteReg(R7, 0x00000000)
TCF5C 000:530.966 - 0.007ms returns 0
TCF5C 000:530.974 JLINK_WriteReg(R8, 0x00000000)
TCF5C 000:530.981 - 0.007ms returns 0
TCF5C 000:530.990 JLINK_WriteReg(R9, 0x20000420)
TCF5C 000:530.997 - 0.007ms returns 0
TCF5C 000:531.006 JLINK_WriteReg(R10, 0x00000000)
TCF5C 000:531.013 - 0.007ms returns 0
TCF5C 000:531.022 JLINK_WriteReg(R11, 0x00000000)
TCF5C 000:531.029 - 0.007ms returns 0
TCF5C 000:531.038 JLINK_WriteReg(R12, 0x00000000)
TCF5C 000:531.045 - 0.007ms returns 0
TCF5C 000:531.054 JLINK_WriteReg(R13 (SP), 0x20001000)
TCF5C 000:531.062 - 0.007ms returns 0
TCF5C 000:531.070 JLINK_WriteReg(R14, 0x20000001)
TCF5C 000:531.077 - 0.007ms returns 0
TCF5C 000:531.086 JLINK_WriteReg(R15 (PC), 0x20000070)
TCF5C 000:531.093 - 0.007ms returns 0
TCF5C 000:531.102 JLINK_WriteReg(XPSR, 0x01000000)
TCF5C 000:531.109 - 0.007ms returns 0
TCF5C 000:531.117 JLINK_WriteReg(MSP, 0x20001000)
TCF5C 000:531.125 - 0.007ms returns 0
TCF5C 000:531.133 JLINK_WriteReg(PSP, 0x20001000)
TCF5C 000:531.141 - 0.007ms returns 0
TCF5C 000:531.149 JLINK_WriteReg(CFBP, 0x00000000)
TCF5C 000:531.156 - 0.007ms returns 0
TCF5C 000:531.165 JLINK_SetBPEx(Addr = 0x20000000, Type = 0xFFFFFFF2)
TCF5C 000:531.173 - 0.008ms returns 0x00000006
TCF5C 000:531.182 JLINK_Go()
TCF5C 000:531.198   CPU_ReadMem(4 bytes @ 0xE0001000)
TCF5C 000:535.157 - 3.974ms 
TCF5C 000:535.170 JLINK_IsHalted()
TCF5C 000:539.006   CPU_ReadMem(2 bytes @ 0x20000000)
TCF5C 000:539.751 - 4.580ms returns TRUE
TCF5C 000:539.774 JLINK_ReadReg(R15 (PC))
TCF5C 000:539.784 - 0.010ms returns 0x20000000
TCF5C 000:539.794 JLINK_ClrBPEx(BPHandle = 0x00000006)
TCF5C 000:539.802 - 0.008ms returns 0x00
TCF5C 000:539.811 JLINK_ReadReg(R0)
TCF5C 000:539.822 - 0.011ms returns 0x00000000
TCF5C 000:596.601 JLINK_WriteMem(0x20000000, 0x428 Bytes, ...)
TCF5C 000:596.618   Data:  00 BE 0A E0 0D 78 2D 06 68 40 08 24 40 00 00 D3 ...
TCF5C 000:596.640   CPU_WriteMem(1064 bytes @ 0x20000000)
TCF5C 000:608.587 - 11.984ms returns 0x428
TCF5C 000:608.666 JLINK_HasError()
TCF5C 000:608.679 JLINK_WriteReg(R0, 0x00000000)
TCF5C 000:608.689 - 0.010ms returns 0
TCF5C 000:608.698 JLINK_WriteReg(R1, 0x00B71B00)
TCF5C 000:608.705 - 0.007ms returns 0
TCF5C 000:608.713 JLINK_WriteReg(R2, 0x00000002)
TCF5C 000:608.720 - 0.006ms returns 0
TCF5C 000:608.727 JLINK_WriteReg(R3, 0x00000000)
TCF5C 000:608.734 - 0.006ms returns 0
TCF5C 000:608.741 JLINK_WriteReg(R4, 0x00000000)
TCF5C 000:608.748 - 0.006ms returns 0
TCF5C 000:608.755 JLINK_WriteReg(R5, 0x00000000)
TCF5C 000:608.762 - 0.006ms returns 0
TCF5C 000:608.770 JLINK_WriteReg(R6, 0x00000000)
TCF5C 000:608.782 - 0.012ms returns 0
TCF5C 000:608.790 JLINK_WriteReg(R7, 0x00000000)
TCF5C 000:608.797 - 0.006ms returns 0
TCF5C 000:608.804 JLINK_WriteReg(R8, 0x00000000)
TCF5C 000:608.811 - 0.006ms returns 0
TCF5C 000:608.819 JLINK_WriteReg(R9, 0x20000420)
TCF5C 000:608.825 - 0.006ms returns 0
TCF5C 000:608.833 JLINK_WriteReg(R10, 0x00000000)
TCF5C 000:608.840 - 0.006ms returns 0
TCF5C 000:608.847 JLINK_WriteReg(R11, 0x00000000)
TCF5C 000:608.854 - 0.006ms returns 0
TCF5C 000:608.861 JLINK_WriteReg(R12, 0x00000000)
TCF5C 000:608.868 - 0.006ms returns 0
TCF5C 000:608.875 JLINK_WriteReg(R13 (SP), 0x20001000)
TCF5C 000:608.883 - 0.008ms returns 0
TCF5C 000:608.891 JLINK_WriteReg(R14, 0x20000001)
TCF5C 000:608.898 - 0.007ms returns 0
TCF5C 000:608.906 JLINK_WriteReg(R15 (PC), 0x20000020)
TCF5C 000:608.913 - 0.007ms returns 0
TCF5C 000:608.921 JLINK_WriteReg(XPSR, 0x01000000)
TCF5C 000:608.927 - 0.006ms returns 0
TCF5C 000:608.935 JLINK_WriteReg(MSP, 0x20001000)
TCF5C 000:608.941 - 0.006ms returns 0
TCF5C 000:608.949 JLINK_WriteReg(PSP, 0x20001000)
TCF5C 000:608.956 - 0.007ms returns 0
TCF5C 000:608.963 JLINK_WriteReg(CFBP, 0x00000000)
TCF5C 000:608.970 - 0.006ms returns 0
TCF5C 000:608.978 JLINK_SetBPEx(Addr = 0x20000000, Type = 0xFFFFFFF2)
TCF5C 000:608.992   CPU_ReadMem(2 bytes @ 0x20000000)
TCF5C 000:609.714 - 0.735ms returns 0x00000007
TCF5C 000:609.726 JLINK_Go()
TCF5C 000:609.735   CPU_WriteMem(2 bytes @ 0x20000000)
TCF5C 000:610.372   CPU_ReadMem(4 bytes @ 0xE0001000)
TCF5C 000:614.289 - 4.562ms 
TCF5C 000:614.304 JLINK_IsHalted()
TCF5C 000:618.138   CPU_ReadMem(2 bytes @ 0x20000000)
TCF5C 000:618.788 - 4.483ms returns TRUE
TCF5C 000:618.803 JLINK_ReadReg(R15 (PC))
TCF5C 000:618.813 - 0.009ms returns 0x20000000
TCF5C 000:618.823 JLINK_ClrBPEx(BPHandle = 0x00000007)
TCF5C 000:618.831 - 0.008ms returns 0x00
TCF5C 000:618.840 JLINK_ReadReg(R0)
TCF5C 000:618.848 - 0.007ms returns 0x00000000
TCF5C 000:619.450 JLINK_WriteMem(0x20000450, 0x200 Bytes, ...)
TCF5C 000:619.471   Data:  00 00 01 20 7D 0A 00 00 95 0A 00 00 97 0A 00 00 ...
TCF5C 000:619.496   CPU_WriteMem(512 bytes @ 0x20000450)
TCF5C 000:625.705 - 6.255ms returns 0x200
TCF5C 000:625.725 JLINK_HasError()
TCF5C 000:625.734 JLINK_WriteReg(R0, 0x00000000)
TCF5C 000:625.743 - 0.009ms returns 0
TCF5C 000:625.753 JLINK_WriteReg(R1, 0x00000200)
TCF5C 000:625.762 - 0.008ms returns 0
TCF5C 000:625.770 JLINK_WriteReg(R2, 0x20000450)
TCF5C 000:625.778 - 0.007ms returns 0
TCF5C 000:625.787 JLINK_WriteReg(R3, 0x00000000)
TCF5C 000:625.794 - 0.007ms returns 0
TCF5C 000:625.802 JLINK_WriteReg(R4, 0x00000000)
TCF5C 000:625.810 - 0.007ms returns 0
TCF5C 000:625.818 JLINK_WriteReg(R5, 0x00000000)
TCF5C 000:625.825 - 0.007ms returns 0
TCF5C 000:625.834 JLINK_WriteReg(R6, 0x00000000)
TCF5C 000:625.841 - 0.007ms returns 0
TCF5C 000:625.849 JLINK_WriteReg(R7, 0x00000000)
TCF5C 000:625.858 - 0.008ms returns 0
TCF5C 000:625.866 JLINK_WriteReg(R8, 0x00000000)
TCF5C 000:625.873 - 0.007ms returns 0
TCF5C 000:625.882 JLINK_WriteReg(R9, 0x20000420)
TCF5C 000:625.889 - 0.007ms returns 0
TCF5C 000:625.897 JLINK_WriteReg(R10, 0x00000000)
TCF5C 000:625.905 - 0.007ms returns 0
TCF5C 000:625.913 JLINK_WriteReg(R11, 0x00000000)
TCF5C 000:625.921 - 0.007ms returns 0
TCF5C 000:625.930 JLINK_WriteReg(R12, 0x00000000)
TCF5C 000:625.937 - 0.007ms returns 0
TCF5C 000:625.945 JLINK_WriteReg(R13 (SP), 0x20001000)
TCF5C 000:625.953 - 0.008ms returns 0
TCF5C 000:625.962 JLINK_WriteReg(R14, 0x20000001)
TCF5C 000:625.969 - 0.007ms returns 0
TCF5C 000:625.978 JLINK_WriteReg(R15 (PC), 0x200000DE)
TCF5C 000:625.985 - 0.007ms returns 0
TCF5C 000:625.994 JLINK_WriteReg(XPSR, 0x01000000)
TCF5C 000:626.001 - 0.007ms returns 0
TCF5C 000:626.009 JLINK_WriteReg(MSP, 0x20001000)
TCF5C 000:626.017 - 0.007ms returns 0
TCF5C 000:626.025 JLINK_WriteReg(PSP, 0x20001000)
TCF5C 000:626.033 - 0.007ms returns 0
TCF5C 000:626.041 JLINK_WriteReg(CFBP, 0x00000000)
TCF5C 000:626.048 - 0.007ms returns 0
TCF5C 000:626.117 JLINK_SetBPEx(Addr = 0x20000000, Type = 0xFFFFFFF2)
TCF5C 000:626.131 - 0.013ms returns 0x00000008
TCF5C 000:626.140 JLINK_Go()
TCF5C 000:626.155   CPU_ReadMem(4 bytes @ 0xE0001000)
TCF5C 000:630.139 - 3.999ms 
TCF5C 000:630.155 JLINK_IsHalted()
TCF5C 000:630.730 - 0.574ms returns FALSE
TCF5C 000:630.741 JLINK_HasError()
TCF5C 000:634.244 JLINK_IsHalted()
TCF5C 000:634.931 - 0.686ms returns FALSE
TCF5C 000:634.986 JLINK_HasError()
TCF5C 000:636.597 JLINK_IsHalted()
TCF5C 000:637.193 - 0.595ms returns FALSE
TCF5C 000:637.206 JLINK_HasError()
TCF5C 000:639.218 JLINK_IsHalted()
TCF5C 000:639.868 - 0.649ms returns FALSE
TCF5C 000:639.880 JLINK_HasError()
TCF5C 000:641.227 JLINK_IsHalted()
TCF5C 000:645.008   CPU_ReadMem(2 bytes @ 0x20000000)
TCF5C 000:645.617 - 4.390ms returns TRUE
TCF5C 000:645.629 JLINK_ReadReg(R15 (PC))
TCF5C 000:645.636 - 0.007ms returns 0x20000000
TCF5C 000:645.643 JLINK_ClrBPEx(BPHandle = 0x00000008)
TCF5C 000:645.649 - 0.006ms returns 0x00
TCF5C 000:645.656 JLINK_ReadReg(R0)
TCF5C 000:645.662 - 0.005ms returns 0x00000000
TCF5C 000:646.255 JLINK_WriteMem(0x20000450, 0x200 Bytes, ...)
TCF5C 000:646.272   Data:  1F 0B 00 00 1F 0B 00 00 1F 0B 00 00 1F 0B 00 00 ...
TCF5C 000:646.290   CPU_WriteMem(512 bytes @ 0x20000450)
TCF5C 000:652.586 - 6.331ms returns 0x200
TCF5C 000:652.607 JLINK_HasError()
TCF5C 000:652.617 JLINK_WriteReg(R0, 0x00000200)
TCF5C 000:652.627 - 0.009ms returns 0
TCF5C 000:652.635 JLINK_WriteReg(R1, 0x00000200)
TCF5C 000:652.641 - 0.006ms returns 0
TCF5C 000:652.649 JLINK_WriteReg(R2, 0x20000450)
TCF5C 000:652.656 - 0.006ms returns 0
TCF5C 000:652.663 JLINK_WriteReg(R3, 0x00000000)
TCF5C 000:652.670 - 0.006ms returns 0
TCF5C 000:652.677 JLINK_WriteReg(R4, 0x00000000)
TCF5C 000:652.684 - 0.006ms returns 0
TCF5C 000:652.692 JLINK_WriteReg(R5, 0x00000000)
TCF5C 000:652.698 - 0.006ms returns 0
TCF5C 000:652.706 JLINK_WriteReg(R6, 0x00000000)
TCF5C 000:652.712 - 0.006ms returns 0
TCF5C 000:652.720 JLINK_WriteReg(R7, 0x00000000)
TCF5C 000:652.726 - 0.006ms returns 0
TCF5C 000:652.734 JLINK_WriteReg(R8, 0x00000000)
TCF5C 000:652.740 - 0.006ms returns 0
TCF5C 000:652.748 JLINK_WriteReg(R9, 0x20000420)
TCF5C 000:652.755 - 0.006ms returns 0
TCF5C 000:652.762 JLINK_WriteReg(R10, 0x00000000)
TCF5C 000:652.769 - 0.006ms returns 0
TCF5C 000:652.776 JLINK_WriteReg(R11, 0x00000000)
TCF5C 000:652.783 - 0.006ms returns 0
TCF5C 000:652.790 JLINK_WriteReg(R12, 0x00000000)
TCF5C 000:652.797 - 0.006ms returns 0
TCF5C 000:652.805 JLINK_WriteReg(R13 (SP), 0x20001000)
TCF5C 000:652.812 - 0.007ms returns 0
TCF5C 000:652.820 JLINK_WriteReg(R14, 0x20000001)
TCF5C 000:652.827 - 0.006ms returns 0
TCF5C 000:652.834 JLINK_WriteReg(R15 (PC), 0x200000DE)
TCF5C 000:652.841 - 0.006ms returns 0
TCF5C 000:652.848 JLINK_WriteReg(XPSR, 0x01000000)
TCF5C 000:652.855 - 0.006ms returns 0
TCF5C 000:652.863 JLINK_WriteReg(MSP, 0x20001000)
TCF5C 000:652.869 - 0.006ms returns 0
TCF5C 000:652.877 JLINK_WriteReg(PSP, 0x20001000)
TCF5C 000:652.883 - 0.006ms returns 0
TCF5C 000:652.891 JLINK_WriteReg(CFBP, 0x00000000)
TCF5C 000:652.897 - 0.006ms returns 0
TCF5C 000:652.905 JLINK_SetBPEx(Addr = 0x20000000, Type = 0xFFFFFFF2)
TCF5C 000:652.913 - 0.007ms returns 0x00000009
TCF5C 000:652.920 JLINK_Go()
TCF5C 000:652.934   CPU_ReadMem(4 bytes @ 0xE0001000)
TCF5C 000:656.876 - 3.955ms 
TCF5C 000:656.893 JLINK_IsHalted()
TCF5C 000:657.461 - 0.567ms returns FALSE
TCF5C 000:657.471 JLINK_HasError()
TCF5C 000:659.463 JLINK_IsHalted()
TCF5C 000:660.106 - 0.641ms returns FALSE
TCF5C 000:660.133 JLINK_HasError()
TCF5C 000:661.475 JLINK_IsHalted()
TCF5C 000:662.119 - 0.644ms returns FALSE
TCF5C 000:662.134 JLINK_HasError()
TCF5C 000:663.984 JLINK_IsHalted()
TCF5C 000:664.588 - 0.603ms returns FALSE
TCF5C 000:664.609 JLINK_HasError()
TCF5C 000:666.234 JLINK_IsHalted()
TCF5C 000:670.101   CPU_ReadMem(2 bytes @ 0x20000000)
TCF5C 000:670.716 - 4.481ms returns TRUE
TCF5C 000:670.732 JLINK_ReadReg(R15 (PC))
TCF5C 000:670.744 - 0.011ms returns 0x20000000
TCF5C 000:670.841 JLINK_ClrBPEx(BPHandle = 0x00000009)
TCF5C 000:670.859 - 0.017ms returns 0x00
TCF5C 000:670.870 JLINK_ReadReg(R0)
TCF5C 000:670.879 - 0.009ms returns 0x00000000
TCF5C 000:671.570 JLINK_WriteMem(0x20000450, 0x200 Bytes, ...)
TCF5C 000:671.587   Data:  FF FF FF FF FF FF FF FF FF FF FF FF FE FF FF FF ...
TCF5C 000:671.605   CPU_WriteMem(512 bytes @ 0x20000450)
TCF5C 000:677.784 - 6.214ms returns 0x200
TCF5C 000:677.805 JLINK_HasError()
TCF5C 000:677.814 JLINK_WriteReg(R0, 0x00000400)
TCF5C 000:677.823 - 0.008ms returns 0
TCF5C 000:677.831 JLINK_WriteReg(R1, 0x00000200)
TCF5C 000:677.838 - 0.007ms returns 0
TCF5C 000:677.845 JLINK_WriteReg(R2, 0x20000450)
TCF5C 000:677.852 - 0.006ms returns 0
TCF5C 000:677.862 JLINK_WriteReg(R3, 0x00000000)
TCF5C 000:677.870 - 0.007ms returns 0
TCF5C 000:677.879 JLINK_WriteReg(R4, 0x00000000)
TCF5C 000:677.886 - 0.007ms returns 0
TCF5C 000:677.894 JLINK_WriteReg(R5, 0x00000000)
TCF5C 000:677.902 - 0.007ms returns 0
TCF5C 000:677.910 JLINK_WriteReg(R6, 0x00000000)
TCF5C 000:677.917 - 0.007ms returns 0
TCF5C 000:677.926 JLINK_WriteReg(R7, 0x00000000)
TCF5C 000:677.933 - 0.007ms returns 0
TCF5C 000:677.941 JLINK_WriteReg(R8, 0x00000000)
TCF5C 000:677.949 - 0.007ms returns 0
TCF5C 000:677.957 JLINK_WriteReg(R9, 0x20000420)
TCF5C 000:677.964 - 0.007ms returns 0
TCF5C 000:677.974 JLINK_WriteReg(R10, 0x00000000)
TCF5C 000:677.981 - 0.007ms returns 0
TCF5C 000:677.989 JLINK_WriteReg(R11, 0x00000000)
TCF5C 000:677.997 - 0.007ms returns 0
TCF5C 000:678.005 JLINK_WriteReg(R12, 0x00000000)
TCF5C 000:678.012 - 0.007ms returns 0
TCF5C 000:678.021 JLINK_WriteReg(R13 (SP), 0x20001000)
TCF5C 000:678.029 - 0.007ms returns 0
TCF5C 000:678.037 JLINK_WriteReg(R14, 0x20000001)
TCF5C 000:678.045 - 0.007ms returns 0
TCF5C 000:678.053 JLINK_WriteReg(R15 (PC), 0x200000DE)
TCF5C 000:678.061 - 0.007ms returns 0
TCF5C 000:678.069 JLINK_WriteReg(XPSR, 0x01000000)
TCF5C 000:678.076 - 0.007ms returns 0
TCF5C 000:678.085 JLINK_WriteReg(MSP, 0x20001000)
TCF5C 000:678.092 - 0.007ms returns 0
TCF5C 000:678.101 JLINK_WriteReg(PSP, 0x20001000)
TCF5C 000:678.108 - 0.007ms returns 0
TCF5C 000:678.116 JLINK_WriteReg(CFBP, 0x00000000)
TCF5C 000:678.123 - 0.007ms returns 0
TCF5C 000:678.133 JLINK_SetBPEx(Addr = 0x20000000, Type = 0xFFFFFFF2)
TCF5C 000:678.141 - 0.008ms returns 0x0000000A
TCF5C 000:678.150 JLINK_Go()
TCF5C 000:678.164   CPU_ReadMem(4 bytes @ 0xE0001000)
TCF5C 000:682.084 - 3.934ms 
TCF5C 000:682.101 JLINK_IsHalted()
TCF5C 000:682.708 - 0.606ms returns FALSE
TCF5C 000:682.720 JLINK_HasError()
TCF5C 000:685.214 JLINK_IsHalted()
TCF5C 000:685.831 - 0.616ms returns FALSE
TCF5C 000:685.892 JLINK_HasError()
TCF5C 000:687.830 JLINK_IsHalted()
TCF5C 000:688.419 - 0.588ms returns FALSE
TCF5C 000:688.432 JLINK_HasError()
TCF5C 000:690.418 JLINK_IsHalted()
TCF5C 000:691.040 - 0.621ms returns FALSE
TCF5C 000:691.064 JLINK_HasError()
TCF5C 000:693.034 JLINK_IsHalted()
TCF5C 000:696.943   CPU_ReadMem(2 bytes @ 0x20000000)
TCF5C 000:697.580 - 4.545ms returns TRUE
TCF5C 000:697.591 JLINK_ReadReg(R15 (PC))
TCF5C 000:697.599 - 0.007ms returns 0x20000000
TCF5C 000:697.605 JLINK_ClrBPEx(BPHandle = 0x0000000A)
TCF5C 000:697.611 - 0.006ms returns 0x00
TCF5C 000:697.618 JLINK_ReadReg(R0)
TCF5C 000:697.623 - 0.005ms returns 0x00000000
TCF5C 000:698.210 JLINK_WriteMem(0x20000450, 0x200 Bytes, ...)
TCF5C 000:698.223   Data:  F1 EE 10 FA 03 D2 DF ED 11 0A B0 EE 60 0A F0 EE ...
TCF5C 000:698.236   CPU_WriteMem(512 bytes @ 0x20000450)
TCF5C 000:704.398 - 6.187ms returns 0x200
TCF5C 000:704.420 JLINK_HasError()
TCF5C 000:704.430 JLINK_WriteReg(R0, 0x00000600)
TCF5C 000:704.440 - 0.009ms returns 0
TCF5C 000:704.449 JLINK_WriteReg(R1, 0x00000200)
TCF5C 000:704.456 - 0.007ms returns 0
TCF5C 000:704.465 JLINK_WriteReg(R2, 0x20000450)
TCF5C 000:704.472 - 0.007ms returns 0
TCF5C 000:704.481 JLINK_WriteReg(R3, 0x00000000)
TCF5C 000:704.488 - 0.007ms returns 0
TCF5C 000:704.497 JLINK_WriteReg(R4, 0x00000000)
TCF5C 000:704.504 - 0.007ms returns 0
TCF5C 000:704.575 JLINK_WriteReg(R5, 0x00000000)
TCF5C 000:704.588 - 0.013ms returns 0
TCF5C 000:704.597 JLINK_WriteReg(R6, 0x00000000)
TCF5C 000:704.604 - 0.007ms returns 0
TCF5C 000:704.612 JLINK_WriteReg(R7, 0x00000000)
TCF5C 000:704.620 - 0.007ms returns 0
TCF5C 000:704.628 JLINK_WriteReg(R8, 0x00000000)
TCF5C 000:704.636 - 0.007ms returns 0
TCF5C 000:704.644 JLINK_WriteReg(R9, 0x20000420)
TCF5C 000:704.651 - 0.007ms returns 0
TCF5C 000:704.660 JLINK_WriteReg(R10, 0x00000000)
TCF5C 000:704.667 - 0.007ms returns 0
TCF5C 000:704.676 JLINK_WriteReg(R11, 0x00000000)
TCF5C 000:704.683 - 0.007ms returns 0
TCF5C 000:704.692 JLINK_WriteReg(R12, 0x00000000)
TCF5C 000:704.699 - 0.007ms returns 0
TCF5C 000:704.708 JLINK_WriteReg(R13 (SP), 0x20001000)
TCF5C 000:704.716 - 0.008ms returns 0
TCF5C 000:704.724 JLINK_WriteReg(R14, 0x20000001)
TCF5C 000:704.731 - 0.007ms returns 0
TCF5C 000:704.745 JLINK_WriteReg(R15 (PC), 0x200000DE)
TCF5C 000:704.753 - 0.007ms returns 0
TCF5C 000:704.761 JLINK_WriteReg(XPSR, 0x01000000)
TCF5C 000:704.769 - 0.007ms returns 0
TCF5C 000:704.777 JLINK_WriteReg(MSP, 0x20001000)
TCF5C 000:704.784 - 0.007ms returns 0
TCF5C 000:704.793 JLINK_WriteReg(PSP, 0x20001000)
TCF5C 000:704.800 - 0.007ms returns 0
TCF5C 000:704.809 JLINK_WriteReg(CFBP, 0x00000000)
TCF5C 000:704.816 - 0.007ms returns 0
TCF5C 000:704.825 JLINK_SetBPEx(Addr = 0x20000000, Type = 0xFFFFFFF2)
TCF5C 000:704.833 - 0.008ms returns 0x0000000B
TCF5C 000:704.842 JLINK_Go()
TCF5C 000:704.857   CPU_ReadMem(4 bytes @ 0xE0001000)
TCF5C 000:708.858 - 4.016ms 
TCF5C 000:708.873 JLINK_IsHalted()
TCF5C 000:709.479 - 0.606ms returns FALSE
TCF5C 000:709.491 JLINK_HasError()
TCF5C 000:710.829 JLINK_IsHalted()
TCF5C 000:711.410 - 0.580ms returns FALSE
TCF5C 000:711.479 JLINK_HasError()
TCF5C 000:712.838 JLINK_IsHalted()
TCF5C 000:713.417 - 0.578ms returns FALSE
TCF5C 000:713.429 JLINK_HasError()
TCF5C 000:715.418 JLINK_IsHalted()
TCF5C 000:716.025 - 0.606ms returns FALSE
TCF5C 000:716.039 JLINK_HasError()
TCF5C 000:718.026 JLINK_IsHalted()
TCF5C 000:718.618 - 0.592ms returns FALSE
TCF5C 000:718.633 JLINK_HasError()
TCF5C 000:720.616 JLINK_IsHalted()
TCF5C 000:724.502   CPU_ReadMem(2 bytes @ 0x20000000)
TCF5C 000:725.138 - 4.521ms returns TRUE
TCF5C 000:725.148 JLINK_ReadReg(R15 (PC))
TCF5C 000:725.156 - 0.007ms returns 0x20000000
TCF5C 000:725.163 JLINK_ClrBPEx(BPHandle = 0x0000000B)
TCF5C 000:725.169 - 0.006ms returns 0x00
TCF5C 000:725.176 JLINK_ReadReg(R0)
TCF5C 000:725.181 - 0.005ms returns 0x00000000
TCF5C 000:725.682 JLINK_WriteMem(0x20000450, 0x200 Bytes, ...)
TCF5C 000:725.695   Data:  70 47 10 B5 30 20 00 28 07 DB 00 F0 1F 02 01 21 ...
TCF5C 000:725.709   CPU_WriteMem(512 bytes @ 0x20000450)
TCF5C 000:731.852 - 6.169ms returns 0x200
TCF5C 000:731.872 JLINK_HasError()
TCF5C 000:731.881 JLINK_WriteReg(R0, 0x00000800)
TCF5C 000:731.890 - 0.008ms returns 0
TCF5C 000:731.898 JLINK_WriteReg(R1, 0x00000200)
TCF5C 000:731.905 - 0.006ms returns 0
TCF5C 000:731.912 JLINK_WriteReg(R2, 0x20000450)
TCF5C 000:731.919 - 0.007ms returns 0
TCF5C 000:731.927 JLINK_WriteReg(R3, 0x00000000)
TCF5C 000:731.934 - 0.006ms returns 0
TCF5C 000:731.941 JLINK_WriteReg(R4, 0x00000000)
TCF5C 000:731.948 - 0.007ms returns 0
TCF5C 000:731.959 JLINK_WriteReg(R5, 0x00000000)
TCF5C 000:731.966 - 0.007ms returns 0
TCF5C 000:731.975 JLINK_WriteReg(R6, 0x00000000)
TCF5C 000:731.982 - 0.007ms returns 0
TCF5C 000:731.990 JLINK_WriteReg(R7, 0x00000000)
TCF5C 000:731.998 - 0.007ms returns 0
TCF5C 000:732.006 JLINK_WriteReg(R8, 0x00000000)
TCF5C 000:732.013 - 0.007ms returns 0
TCF5C 000:732.022 JLINK_WriteReg(R9, 0x20000420)
TCF5C 000:732.029 - 0.007ms returns 0
TCF5C 000:732.037 JLINK_WriteReg(R10, 0x00000000)
TCF5C 000:732.045 - 0.007ms returns 0
TCF5C 000:732.054 JLINK_WriteReg(R11, 0x00000000)
TCF5C 000:732.061 - 0.007ms returns 0
TCF5C 000:732.069 JLINK_WriteReg(R12, 0x00000000)
TCF5C 000:732.077 - 0.007ms returns 0
TCF5C 000:732.085 JLINK_WriteReg(R13 (SP), 0x20001000)
TCF5C 000:732.093 - 0.008ms returns 0
TCF5C 000:732.111 JLINK_WriteReg(R14, 0x20000001)
TCF5C 000:732.118 - 0.007ms returns 0
TCF5C 000:732.127 JLINK_WriteReg(R15 (PC), 0x200000DE)
TCF5C 000:732.134 - 0.007ms returns 0
TCF5C 000:732.143 JLINK_WriteReg(XPSR, 0x01000000)
TCF5C 000:732.150 - 0.007ms returns 0
TCF5C 000:732.159 JLINK_WriteReg(MSP, 0x20001000)
TCF5C 000:732.166 - 0.007ms returns 0
TCF5C 000:732.174 JLINK_WriteReg(PSP, 0x20001000)
TCF5C 000:732.182 - 0.007ms returns 0
TCF5C 000:732.190 JLINK_WriteReg(CFBP, 0x00000000)
TCF5C 000:732.197 - 0.007ms returns 0
TCF5C 000:732.207 JLINK_SetBPEx(Addr = 0x20000000, Type = 0xFFFFFFF2)
TCF5C 000:732.215 - 0.008ms returns 0x0000000C
TCF5C 000:732.223 JLINK_Go()
TCF5C 000:732.238   CPU_ReadMem(4 bytes @ 0xE0001000)
TCF5C 000:736.166 - 3.942ms 
TCF5C 000:736.181 JLINK_IsHalted()
TCF5C 000:736.792 - 0.609ms returns FALSE
TCF5C 000:736.823 JLINK_HasError()
TCF5C 000:738.781 JLINK_IsHalted()
TCF5C 000:739.418 - 0.636ms returns FALSE
TCF5C 000:739.440 JLINK_HasError()
TCF5C 000:741.419 JLINK_IsHalted()
TCF5C 000:742.032 - 0.613ms returns FALSE
TCF5C 000:742.046 JLINK_HasError()
TCF5C 000:744.160 JLINK_IsHalted()
TCF5C 000:744.776 - 0.615ms returns FALSE
TCF5C 000:744.786 JLINK_HasError()
TCF5C 000:747.171 JLINK_IsHalted()
TCF5C 000:750.959   CPU_ReadMem(2 bytes @ 0x20000000)
TCF5C 000:751.580 - 4.409ms returns TRUE
TCF5C 000:751.594 JLINK_ReadReg(R15 (PC))
TCF5C 000:751.604 - 0.009ms returns 0x20000000
TCF5C 000:751.612 JLINK_ClrBPEx(BPHandle = 0x0000000C)
TCF5C 000:751.621 - 0.008ms returns 0x00
TCF5C 000:751.629 JLINK_ReadReg(R0)
TCF5C 000:751.637 - 0.007ms returns 0x00000000
TCF5C 000:752.228 JLINK_WriteMem(0x20000450, 0x200 Bytes, ...)
TCF5C 000:752.240   Data:  1F 02 01 21 91 40 19 4A 43 09 42 F8 23 10 00 BF ...
TCF5C 000:752.254   CPU_WriteMem(512 bytes @ 0x20000450)
TCF5C 000:758.444 - 6.215ms returns 0x200
TCF5C 000:758.479 JLINK_HasError()
TCF5C 000:758.493 JLINK_WriteReg(R0, 0x00000A00)
TCF5C 000:758.511 - 0.017ms returns 0
TCF5C 000:758.527 JLINK_WriteReg(R1, 0x00000200)
TCF5C 000:758.542 - 0.015ms returns 0
TCF5C 000:758.558 JLINK_WriteReg(R2, 0x20000450)
TCF5C 000:758.574 - 0.015ms returns 0
TCF5C 000:758.587 JLINK_WriteReg(R3, 0x00000000)
TCF5C 000:758.601 - 0.014ms returns 0
TCF5C 000:758.618 JLINK_WriteReg(R4, 0x00000000)
TCF5C 000:758.633 - 0.015ms returns 0
TCF5C 000:758.646 JLINK_WriteReg(R5, 0x00000000)
TCF5C 000:758.657 - 0.011ms returns 0
TCF5C 000:758.670 JLINK_WriteReg(R6, 0x00000000)
TCF5C 000:758.683 - 0.012ms returns 0
TCF5C 000:758.697 JLINK_WriteReg(R7, 0x00000000)
TCF5C 000:758.710 - 0.013ms returns 0
TCF5C 000:758.722 JLINK_WriteReg(R8, 0x00000000)
TCF5C 000:758.733 - 0.011ms returns 0
TCF5C 000:758.746 JLINK_WriteReg(R9, 0x20000420)
TCF5C 000:758.757 - 0.011ms returns 0
TCF5C 000:758.770 JLINK_WriteReg(R10, 0x00000000)
TCF5C 000:758.782 - 0.012ms returns 0
TCF5C 000:758.795 JLINK_WriteReg(R11, 0x00000000)
TCF5C 000:758.809 - 0.013ms returns 0
TCF5C 000:758.821 JLINK_WriteReg(R12, 0x00000000)
TCF5C 000:758.833 - 0.011ms returns 0
TCF5C 000:758.845 JLINK_WriteReg(R13 (SP), 0x20001000)
TCF5C 000:758.859 - 0.014ms returns 0
TCF5C 000:758.873 JLINK_WriteReg(R14, 0x20000001)
TCF5C 000:758.885 - 0.012ms returns 0
TCF5C 000:758.899 JLINK_WriteReg(R15 (PC), 0x200000DE)
TCF5C 000:758.912 - 0.012ms returns 0
TCF5C 000:758.926 JLINK_WriteReg(XPSR, 0x01000000)
TCF5C 000:758.939 - 0.013ms returns 0
TCF5C 000:758.952 JLINK_WriteReg(MSP, 0x20001000)
TCF5C 000:758.964 - 0.012ms returns 0
TCF5C 000:758.977 JLINK_WriteReg(PSP, 0x20001000)
TCF5C 000:758.991 - 0.014ms returns 0
TCF5C 000:759.003 JLINK_WriteReg(CFBP, 0x00000000)
TCF5C 000:759.011 - 0.008ms returns 0
TCF5C 000:759.037 JLINK_SetBPEx(Addr = 0x20000000, Type = 0xFFFFFFF2)
TCF5C 000:759.048 - 0.011ms returns 0x0000000D
TCF5C 000:759.057 JLINK_Go()
TCF5C 000:759.117   CPU_ReadMem(4 bytes @ 0xE0001000)
TCF5C 000:763.086 - 4.028ms 
TCF5C 000:763.156 JLINK_IsHalted()
TCF5C 000:763.756 - 0.599ms returns FALSE
TCF5C 000:763.771 JLINK_HasError()
TCF5C 000:765.393 JLINK_IsHalted()
TCF5C 000:765.976 - 0.583ms returns FALSE
TCF5C 000:765.987 JLINK_HasError()
TCF5C 000:767.980 JLINK_IsHalted()
TCF5C 000:768.573 - 0.593ms returns FALSE
TCF5C 000:768.587 JLINK_HasError()
TCF5C 000:770.574 JLINK_IsHalted()
TCF5C 000:771.208 - 0.634ms returns FALSE
TCF5C 000:771.225 JLINK_HasError()
TCF5C 000:773.220 JLINK_IsHalted()
TCF5C 000:777.079   CPU_ReadMem(2 bytes @ 0x20000000)
TCF5C 000:777.733 - 4.513ms returns TRUE
TCF5C 000:777.754 JLINK_ReadReg(R15 (PC))
TCF5C 000:777.764 - 0.010ms returns 0x20000000
TCF5C 000:777.773 JLINK_ClrBPEx(BPHandle = 0x0000000D)
TCF5C 000:777.781 - 0.008ms returns 0x00
TCF5C 000:777.790 JLINK_ReadReg(R0)
TCF5C 000:777.798 - 0.007ms returns 0x00000000
TCF5C 000:778.435 JLINK_WriteMem(0x20000450, 0x200 Bytes, ...)
TCF5C 000:778.450   Data:  01 2A 04 D0 02 2A 05 D1 05 E0 5F 48 05 E0 4F F4 ...
TCF5C 000:778.466   CPU_WriteMem(512 bytes @ 0x20000450)
TCF5C 000:784.674 - 6.239ms returns 0x200
TCF5C 000:784.687 JLINK_HasError()
TCF5C 000:784.696 JLINK_WriteReg(R0, 0x00000C00)
TCF5C 000:784.703 - 0.008ms returns 0
TCF5C 000:784.711 JLINK_WriteReg(R1, 0x00000200)
TCF5C 000:784.718 - 0.006ms returns 0
TCF5C 000:784.727 JLINK_WriteReg(R2, 0x20000450)
TCF5C 000:784.734 - 0.006ms returns 0
TCF5C 000:784.741 JLINK_WriteReg(R3, 0x00000000)
TCF5C 000:784.748 - 0.006ms returns 0
TCF5C 000:784.755 JLINK_WriteReg(R4, 0x00000000)
TCF5C 000:784.762 - 0.006ms returns 0
TCF5C 000:784.769 JLINK_WriteReg(R5, 0x00000000)
TCF5C 000:784.776 - 0.006ms returns 0
TCF5C 000:784.783 JLINK_WriteReg(R6, 0x00000000)
TCF5C 000:784.790 - 0.006ms returns 0
TCF5C 000:784.797 JLINK_WriteReg(R7, 0x00000000)
TCF5C 000:784.804 - 0.006ms returns 0
TCF5C 000:784.811 JLINK_WriteReg(R8, 0x00000000)
TCF5C 000:784.818 - 0.006ms returns 0
TCF5C 000:784.826 JLINK_WriteReg(R9, 0x20000420)
TCF5C 000:784.832 - 0.006ms returns 0
